date Wed 05.28.2014 11:55:58
base hex  timestamps absolute
  0.000000000  1  80    Rx   d 19  80 64 00 6E 00 AF 00 80 59 00 A8 00 00 AD 00 80 66 00 EB
  1.000620603  1  80    Rx   d 19  80 64 00 6E B0 AF 00 80 59 00 A8 FE 00 AD 00 80 66 71 CC
  2.000929713  1  80    Rx   d 19  80 64 00 6E B0 AF C0 02 59 00 A8 FD 00 AD D2 02 66 00 A8
  3.000502020  1  80    Rx   d 19  80 64 00 6E B0 AF A3 02 59 00 A8 FD 00 AD D2 02 66 00 C5
  4.010354072  1  80    Rx   d 19  80 64 00 6E B0 AF A3 02 59 00 A8 FD 00 AD D2 02 66 00 C5
  5.010818392  1  80    Rx   d 19  80 64 00 6E B0 AF A3 02 59 00 A8 FD 00 AD D2 02 66 00 C5
  6.010407865  1  80    Rx   d 19  80 64 00 6E B0 AF A3 02 59 00 A8 FE 00 AD D2 02 66 00 C4
  6.989763081  1  80    Rx   d 19  80 64 00 6E B0 AF A3 02 59 00 A8 FE 00 AD D2 02 66 00 C4
  7.999714345  1  80    Rx   d 19  80 64 00 6E B0 AF A3 02 59 00 A8 FE 00 AD D2 02 66 00 C4
  9.000339061  1  80    Rx   d 19  80 64 00 6E B0 AF A3 02 59 00 A8 FD 00 AD D2 02 66 00 C5
  10.000630140  1  80    Rx   d 19  80 64 00 6E B0 AF A3 02 59 00 A8 FE 00 AD D2 02 66 00 C4
  10.999674082  1  80    Rx   d 19  80 64 00 6E B0 AF A3 02 59 00 A8 FE 00 AD D2 02 66 00 C4
  11.999626010  1  80    Rx   d 19  80 64 00 6E B0 AF A3 02 59 00 A8 FD 00 AD D2 02 66 00 C5
  12.999627113  1  80    Rx   d 19  80 64 00 6E B0 AF A3 02 59 00 A8 FE 00 AD D2 02 66 00 C4
  14.000126600  1  80    Rx   d 19  80 64 00 6E B0 AF A3 02 59 00 A8 FD 00 AD D2 02 66 00 C5
  14.999599337  1  80    Rx   d 19  80 64 00 6E B0 AF A3 02 59 00 A8 FD 00 AD D2 02 66 00 C5
  16.009498209  1  80    Rx   d 19  80 64 00 6E B0 AF A3 02 59 00 A8 FD 00 AD D2 02 66 00 C5
  16.999497592  1  80    Rx   d 19  80 64 00 6E B0 AF A3 02 59 00 A8 FD 00 AD D2 02 66 00 C5
  18.000200271  1  80    Rx   d 19  80 64 00 6E B0 AF A3 02 59 00 A8 FD 00 AD D0 02 66 00 C7
  18.989334106  1  80    Rx   d 19  80 64 00 6E B0 AF A3 02 59 00 A8 FD 00 AD CF 02 66 00 C8
  20.000377327  1  80    Rx   d 19  80 64 00 6E B0 AF A3 02 59 00 A8 FD 00 AD CF 02 66 00 C8
  21.009462237  1  80    Rx   d 19  80 64 00 6E B0 AF A3 02 59 00 A8 FD 00 AD D2 02 66 00 C5
  21.999466419  1  80    Rx   d 19  80 64 00 6E B0 AF A3 02 59 00 A8 FD 00 AD D2 02 66 00 C5
  22.999979138  1  80    Rx   d 19  80 64 00 6E B0 AF A3 02 59 00 A8 FD 00 AD D2 02 66 00 C5
  24.009395629  1  80    Rx   d 19  80 64 00 6E B0 AF A3 02 59 00 A8 FE 00 AD D2 02 66 00 C4
  24.999320924  1  80    Rx   d 19  80 64 00 6E B0 AF A3 02 59 00 A8 FD 00 AD D2 02 66 00 C5
  25.999755740  1  80    Rx   d 19  80 64 00 6E B0 AF A3 02 59 00 A8 FE 00 AD D2 02 66 00 C4
  27.009214043  1  80    Rx   d 19  80 64 00 6E B0 AF A3 02 59 00 A8 FE 00 AD D2 02 66 00 C4
  28.000062436  1  80    Rx   d 19  80 64 00 6E B0 AF A3 02 59 00 A8 FD 00 AD D2 02 66 00 C5
  29.009424537  1  80    Rx   d 19  80 64 00 6E B0 AF A3 02 59 00 A8 FD 00 AD CF 02 66 00 C8
  29.999289930  1  80    Rx   d 19  80 64 00 6E B0 AF A3 02 59 00 A8 FE 00 AD D2 02 66 00 C4
  31.009216815  1  80    Rx   d 19  80 64 00 6E B0 AF A3 02 59 00 A8 FD 00 AD CF 02 66 00 C8
  32.006400853  1  80    Rx   d 19  80 64 00 6E B0 AF A3 02 59 00 A8 FD 00 AD D1 02 66 00 C6
  33.009127557  1  80    Rx   d 19  80 64 00 6E B0 AF A3 02 59 00 A8 FD 00 AD D1 02 66 00 C6
  33.999048143  1  80    Rx   d 19  80 64 00 6E B0 AF A3 02 59 00 A8 FD 00 AD D2 02 66 00 C5
  35.009331852  1  80    Rx   d 19  80 64 00 6E B0 AF A3 02 59 00 A8 FD 00 AD CE 02 66 00 C9
  35.999195844  1  80    Rx   d 19  80 64 00 6E B0 AF A3 02 59 00 A8 FD 00 AD D0 02 66 00 C7
  37.009085387  1  80    Rx   d 19  80 64 00 6E B0 AF A3 02 59 00 A8 FD 00 AD CF 02 66 00 C8
  37.999059588  1  80    Rx   d 19  80 64 00 6E B0 AF A3 02 59 00 A8 FD 00 AD CC 02 66 00 CB
  39.008944124  1  80    Rx   d 19  80 64 00 6E B0 AF A3 02 59 00 A8 FD 00 AD CE 02 66 00 C9
  39.999113679  1  80    Rx   d 19  80 64 00 6E B0 AF A3 02 59 00 A8 FD 00 AD CB 02 66 00 CC
  40.999123066  1  80    Rx   d 19  80 64 00 6E B0 AF A3 02 59 00 A8 FD 00 AD CB 02 66 00 CC
  41.998877078  1  80    Rx   d 19  80 64 00 6E B0 AF A3 02 59 00 A8 FD 00 AD C9 02 66 00 CE
  42.998847455  1  80    Rx   d 19  80 64 00 6E B0 AF A3 02 59 00 A8 FE 00 AD C8 02 66 00 CE
  43.998923600  1  80    Rx   d 19  80 64 00 6E B0 AF A3 02 59 00 A8 FD 00 AD CB 02 66 00 CC
  44.998838991  1  80    Rx   d 19  80 64 00 6E B0 AF A3 02 59 00 A8 FD 00 AD CA 02 66 00 CD
  45.998848170  1  80    Rx   d 19  80 64 00 6E B0 AF A3 02 59 00 A8 FD 00 AD C7 02 66 00 D0
  46.998809784  1  80    Rx   d 19  80 64 00 6E B0 AF A3 02 59 00 A8 FD 00 AD C5 02 66 00 D2
  47.998828470  1  80    Rx   d 19  80 64 00 6E B0 AF A3 02 59 00 A8 FD 00 AD C5 02 66 00 D2
  48.998746604  1  80    Rx   d 19  80 64 00 6E B0 AF A3 02 59 00 A8 FD 00 AD C5 02 66 00 D2
  49.998794943  1  80    Rx   d 19  80 64 00 6E B0 AF A3 02 59 00 A8 FD 00 AD C7 02 66 00 D0
  50.998681724  1  80    Rx   d 19  80 64 00 6E B0 AF A3 02 59 00 A8 FD 00 AD C7 02 66 00 D0
  52.008633882  1  80    Rx   d 19  80 64 00 6E B0 AF A3 02 59 00 A8 FD 00 AD C5 02 66 00 D2
  52.998665690  1  80    Rx   d 19  80 64 00 6E B0 AF A3 02 59 00 A8 FD 00 AD C5 02 66 00 D2
  53.998557716  1  80    Rx   d 19  80 64 00 6E B0 AF A3 02 59 00 A8 FD 00 AD C7 02 66 00 D0
  54.998591691  1  80    Rx   d 19  80 64 00 6E B0 AF A3 02 59 00 A8 FD 00 AD C5 02 66 00 D2
  55.998605311  1  80    Rx   d 19  80 64 00 6E B0 AF A3 02 59 00 A8 FD 00 AD C5 02 66 00 D2
  56.999046802  1  80    Rx   d 19  80 64 00 6E B0 AF 9C 02 59 00 A8 FD 00 AD C5 02 66 00 D9
  57.998625695  1  80    Rx   d 19  80 64 00 6E B0 AF 9C 02 59 00 A8 FD 00 AD C5 02 66 00 D9
  58.998454600  1  80    Rx   d 19  80 64 00 6E B0 AF 9C 02 59 00 A8 FD 00 AD C5 02 66 00 D9
  59.998506516  1  80    Rx   d 19  80 64 00 6E B0 AF 9C 02 59 00 A8 FD 00 AD C5 02 66 00 D9
  61.008545488  1  80    Rx   d 19  80 64 00 6E B0 AF 9C 02 59 00 A8 FD 00 AD C5 02 66 00 D9
  62.005461186  1  80    Rx   d 19  80 64 00 6E B0 AF 9C 02 59 00 A8 FD 00 AD C5 02 66 00 D9
  63.008289903  1  80    Rx   d 19  80 64 00 6E B0 AF 9C 02 59 00 A8 FD 00 AD C5 02 66 00 D9
  63.998372555  1  80    Rx   d 19  80 64 00 6E B0 AF 9C 02 59 00 A8 FD 00 AD C5 02 66 00 D9
  65.008375942  1  80    Rx   d 19  80 64 00 6E B0 AF 9C 02 59 00 A8 FD 00 AD C5 02 66 00 D9
  65.998511791  1  80    Rx   d 19  80 64 00 6E B0 AF 9C 02 59 00 A8 FD 00 AD C5 02 66 00 D9
  67.008288353  1  80    Rx   d 19  80 64 00 6E B0 AF 9C 02 59 00 A8 FD 00 AD C5 02 66 00 D9
  67.998262644  1  80    Rx   d 19  80 64 00 6E B0 AF 9C 02 59 00 A8 FD 00 AD C5 02 66 00 D9
  69.008228808  1  80    Rx   d 19  80 64 00 6E B0 AF 9C 02 59 00 A8 FD 00 AD C5 02 66 00 D9
  69.998438269  1  80    Rx   d 19  80 64 00 6E B0 AF 9C 02 59 00 A8 FD 00 AD C5 02 66 00 D9
  71.008174032  1  80    Rx   d 19  80 64 00 6E B0 AF 9C 02 59 00 A8 FD 00 AD C5 02 66 00 D9
  72.008192241  1  80    Rx   d 19  80 64 00 6E B0 AF 9C 02 59 00 A8 FD 00 AD C5 02 66 00 D9
  72.998108268  1  80    Rx   d 19  80 64 00 6E B0 AF 9C 02 59 00 A8 FD 00 AD C5 02 66 00 D9
  74.008130103  1  80    Rx   d 19  80 64 00 6E B0 AF 9C 02 59 00 A8 FD 00 AD C5 02 66 00 D9
  74.998348772  1  80    Rx   d 19  80 64 00 6E B0 AF 9C 02 59 00 A8 FD 00 AD C5 02 66 00 D9
  76.008162170  1  80    Rx   d 19  80 64 00 6E B0 AF 9C 02 59 00 A8 FD 00 AD C5 02 66 00 D9
  77.014799744  1  80    Rx   d 19  80 64 00 6E B0 AF 9C 02 59 00 A8 FD 00 AD C5 02 66 00 D9
  78.008103430  1  80    Rx   d 19  80 64 00 6E B0 AF 9C 02 59 00 A8 FD 00 AD C5 02 66 00 D9
  78.998425305  1  80    Rx   d 19  80 64 00 6E B0 AF 9C 02 59 00 A8 FD 00 AD C5 02 66 00 D9
  80.008024305  1  80    Rx   d 19  80 64 00 6E B0 AF 9C 02 59 00 A8 FD 00 AD C5 02 66 00 D9
  80.999129742  1  80    Rx   d 19  80 64 00 6E B0 AF 9C 02 59 00 A8 FE 00 AD C5 02 66 00 D8
  82.018892944  1  80    Rx   d 19  80 64 00 6E B0 AF 9C 02 59 00 A8 FD 00 AD C5 02 66 00 D9
  82.998433053  1  80    Rx   d 19  80 64 00 6E B0 AF 9C 02 59 00 A8 FD 00 AD C5 02 66 00 D9
  84.008024841  1  80    Rx   d 19  80 64 00 6E B0 AF 9C 02 59 00 A8 FD 00 AD C5 02 66 00 D9
  84.998054355  1  80    Rx   d 19  80 64 00 6E B0 AF 9C 02 59 00 A8 FD 00 AD C5 02 66 00 D9
  85.998101592  1  80    Rx   d 19  80 64 00 6E B0 AF 9C 02 59 00 A8 FD 00 AD C5 02 66 00 D9
  87.007853418  1  80    Rx   d 19  80 64 00 6E B0 AF 9C 02 59 00 A8 FD 00 AD C5 02 66 00 D9
  87.997928083  1  80    Rx   d 19  80 64 00 6E B0 AF 9C 02 59 00 A8 FD 00 AD C5 02 66 00 D9
  89.008007467  1  80    Rx   d 19  80 64 00 6E B0 AF 9C 02 59 00 A8 FD 00 AD C5 02 66 00 D9
  89.998741716  1  80    Rx   d 19  80 64 00 6E B0 AF 9C 02 59 00 A8 FD 00 AD C5 02 66 00 D9
  90.997966617  1  80    Rx   d 19  80 64 00 6E B0 AF 9C 02 59 00 A8 FD 00 AD C5 02 66 00 D9
  92.007725239  1  80    Rx   d 19  80 64 00 6E B0 AF 9C 02 59 00 A8 FD 00 AD C5 02 66 00 D9
  92.997822076  1  80    Rx   d 19  80 64 00 6E B0 AF 9C 02 59 00 A8 FD 00 AD C5 02 66 00 D9
  94.007526517  1  80    Rx   d 19  80 64 00 6E B0 AF 9C 02 59 00 A8 FD 00 AD C5 02 66 00 D9
  94.998249590  1  80    Rx   d 19  80 64 00 6E B0 AF 9C 02 59 00 A8 FD 00 AD C5 02 66 00 D9
  96.007812202  1  80    Rx   d 19  80 64 00 6E B0 AF 9C 02 59 00 A8 FD 00 AD C5 02 66 00 D9
  96.997678697  1  80    Rx   d 19  80 64 00 6E B0 AF 9C 02 59 00 A8 FE 00 AD C4 02 66 00 D9
  98.008153498  1  80    Rx   d 19  80 64 00 6E B0 AF 9C 02 59 00 A8 FD 00 AD C4 02 66 00 DA
  98.997893423  1  80    Rx   d 19  80 64 00 6E B0 AF 9C 02 59 00 A8 FD 00 AD C2 02 66 00 DC
  100.007699638  1  80    Rx   d 19  80 64 00 6E B0 AF 9C 02 59 00 A8 FD 00 AD C4 02 66 00 DA
  100.998726278  1  80    Rx   d 19  80 64 00 6E B0 AF 9C 02 59 00 A8 FD 00 AD C4 02 66 00 DA
  102.007492929  1  80    Rx   d 19  80 64 00 6E B0 AF 9C 02 59 00 A8 FD 00 AD C4 02 66 00 DA
  102.997737378  1  80    Rx   d 19  80 64 00 6E B0 AF 9C 02 59 00 A8 FD 00 AD C2 02 66 00 DC
  104.007603377  1  80    Rx   d 19  80 64 00 6E B0 AF 9C 02 59 00 A8 FD 00 AD C4 02 66 00 DA
  104.997873336  1  80    Rx   d 19  80 64 00 6E B0 AF 9C 02 59 00 A8 FD 00 AD C1 02 66 00 DD
  106.008433431  1  80    Rx   d 19  80 64 00 6E B0 AF 9C 02 59 00 A8 FD 00 AD C0 02 66 00 DE
  106.994665056  1  80    Rx   d 19  80 64 00 6E B0 AF 9C 02 59 00 A8 FD 00 AD C4 02 66 00 DA
  108.007753283  1  80    Rx   d 19  80 64 00 6E B0 AF 9C 02 59 00 A8 FD 00 AD C3 02 66 00 DB
  108.995684027  1  80    Rx   d 19  80 64 00 6E B0 AF 9C 02 59 00 A8 FD 00 AD C4 02 66 00 DA
  109.988142311  1  80    Rx   d 19  80 64 00 6E B0 AF 9C 02 59 00 A8 FD 00 AD C2 02 66 00 DC
  110.998702884  1  80    Rx   d 19  80 64 00 6E B0 AF 9C 02 59 00 A8 FD 00 AD C0 02 66 00 DE
  111.994585871  1  80    Rx   d 19  80 64 00 6E B0 AF 9C 02 59 00 A8 FD 00 AD C3 02 66 00 DB
  113.008265197  1  80    Rx   d 19  80 64 00 6E B0 AF 9C 02 59 00 A8 FE 00 AD BF 02 66 00 DE
  114.008143395  1  80    Rx   d 19  80 64 00 6E B0 AF 9C 02 59 00 A8 FD 00 AD BD 02 66 00 E1
  114.997817188  1  80    Rx   d 19  80 64 00 6E B0 AF 9C 02 59 00 A8 FD 00 AD C0 02 66 00 DE
  116.007299036  1  80    Rx   d 19  80 64 00 6E B0 AF 9C 02 59 00 A8 FD 00 AD C0 02 66 00 DE
  116.997443706  1  80    Rx   d 19  80 64 00 6E B0 AF 9C 02 59 00 A8 FD 00 AD BB 02 66 00 E3
  118.008139223  1  80    Rx   d 19  80 64 00 6E B0 AF 9C 02 59 00 A8 FD 00 AD C0 02 66 00 DE
  118.997949242  1  80    Rx   d 19  80 64 00 6E B0 AF 9C 02 59 00 A8 FC 00 AD C0 02 66 00 DF
  120.007246077  1  80    Rx   d 19  80 64 00 6E B0 AF 9C 02 59 00 A8 FD 00 AD BC 02 66 00 E2
  120.997229576  1  80    Rx   d 19  80 64 00 6E B0 AF 9C 02 59 00 A8 FD 00 AD BE 02 66 00 E0
  121.997317672  1  80    Rx   d 19  80 64 00 6E B0 AF 9C 02 59 00 A8 FD 00 AD BA 02 66 00 E4
  122.997281730  1  80    Rx   d 19  80 64 00 6E B0 AF 9C 02 59 00 A8 FD 00 AD BE 02 66 00 E0
  123.997998297  1  80    Rx   d 19  80 64 00 6E B0 AF 9C 02 59 00 A8 FD 00 AD BA 02 66 00 E4
  125.009875595  1  80    Rx   d 19  80 64 00 6E B0 AF 94 02 59 00 A8 FD 00 AD B9 02 66 00 ED
  125.998056590  1  80    Rx   d 19  80 64 00 6E B0 AF 94 02 59 00 A8 FD 00 AD BC 02 66 00 EA
  126.997904420  1  80    Rx   d 19  80 64 00 6E B0 AF 94 02 59 00 A8 FD 00 AD B7 02 66 00 EF
  127.997776478  1  80    Rx   d 19  80 64 00 6E B0 AF 94 02 59 00 A8 FD 00 AD BA 02 66 00 EC
  128.996994972  1  80    Rx   d 19  80 64 00 6E B0 AF 94 02 59 00 A8 FD 00 AD BA 02 66 00 EC
  129.997461855  1  80    Rx   d 19  80 64 00 6E B0 AF 94 02 59 00 A8 FD 00 AD BA 02 66 00 EC
  130.997645199  1  80    Rx   d 19  80 64 00 6E B0 AF 94 02 59 00 A8 FD 00 AD B7 02 66 00 EF
  132.008190959  1  80    Rx   d 19  80 64 00 6E B0 AF 94 02 59 00 A8 FD 00 AD BA 02 66 00 EC
  132.996772855  1  80    Rx   d 19  80 64 00 6E B0 AF 94 02 59 00 A8 FD 00 AD B7 02 66 00 EF
  133.996828973  1  80    Rx   d 19  80 64 00 6E B0 AF 94 02 59 00 A8 FD 00 AD B7 02 66 00 EF
  134.996967464  1  80    Rx   d 19  80 64 00 6E B0 AF 94 02 59 00 A8 FD 00 AD BB 02 66 00 EB
  135.997125923  1  80    Rx   d 19  80 64 00 6E B0 AF 94 02 59 00 A8 FD 00 AD B7 02 66 00 EF
  136.997107595  1  80    Rx   d 19  80 64 00 6E B0 AF 94 02 59 00 A8 FD 00 AD B7 02 66 00 EF
  137.997786879  1  80    Rx   d 19  80 64 00 6E B0 AF 94 02 59 00 A8 FD 00 AD B7 02 66 00 EF
  138.996786594  1  80    Rx   d 19  80 64 00 6E B0 AF 94 02 59 00 A8 FE 00 AD BA 02 66 00 EB
  139.996985048  1  80    Rx   d 19  80 64 00 6E B0 AF 94 02 59 00 A8 FE 00 AD B7 02 66 00 EE
  140.996965468  1  80    Rx   d 19  80 64 00 6E B0 AF 94 02 59 00 A8 FD 00 AD B7 02 66 00 EF
  141.996856421  1  80    Rx   d 19  80 64 00 6E B0 AF 94 02 59 00 A8 FD 00 AD B7 02 66 00 EF
  142.996965319  1  80    Rx   d 19  80 64 00 6E B0 AF 94 02 59 00 A8 FD 00 AD B7 02 66 00 EF
  143.996936589  1  80    Rx   d 19  80 64 00 6E B0 AF 94 02 59 00 A8 FD 00 AD B7 02 66 00 EF
  144.997853428  1  80    Rx   d 19  80 64 00 6E B0 AF 94 02 59 00 A8 FD 00 AD B7 02 66 00 EF
  145.997517943  1  80    Rx   d 19  80 64 00 6E B0 AF 94 02 59 00 A8 FD 00 AD B7 02 66 00 EF
  146.996553302  1  80    Rx   d 19  80 64 00 6E B0 AF 94 02 59 00 A8 FD 00 AD B7 02 66 00 EF
  147.996620834  1  80    Rx   d 19  80 64 00 6E B0 AF 94 02 59 00 A8 FD 00 AD B7 02 66 00 EF
  148.996538609  1  80    Rx   d 19  80 64 00 6E B0 AF 94 02 59 00 A8 FD 00 AD B7 02 66 00 EF
  149.996342301  1  80    Rx   d 19  80 64 00 6E B0 AF 94 02 59 00 A8 FD 00 AD B7 02 66 00 EF
  150.996968120  1  80    Rx   d 19  80 64 00 6E B0 AF 94 02 59 00 A8 FD 00 AD B7 02 66 00 EF
  151.019570619  1  80    Rx   d 19  80 64 00 6E B0 AF 94 02 59 00 A8 FD 00 AD B7 02 66 00 EF
  151.996688068  1  80    Rx   d 19  80 64 00 6E B0 AF 94 02 59 00 A8 FD 00 AD B7 02 66 00 EF
  152.996726930  1  80    Rx   d 19  80 64 00 6E B0 AF 94 02 59 00 A8 FD 00 AD B7 02 66 00 EF
  153.997564196  1  80    Rx   d 19  80 64 00 6E B0 AF 94 02 59 00 A8 FD 00 AD B7 02 66 00 EF
  154.996489733  1  80    Rx   d 19  80 64 00 6E B0 AF 94 02 59 00 A8 FD 00 AD B7 02 66 00 EF
  155.996748000  1  80    Rx   d 19  80 64 00 6E B0 AF 94 02 59 00 A8 FD 00 AD B7 02 66 00 EF
  156.996746093  1  80    Rx   d 19  80 64 00 6E B0 AF 94 02 59 00 A8 FD 00 AD B7 02 66 00 EF
  157.996806592  1  80    Rx   d 19  80 64 00 6E B0 AF 94 02 59 00 A8 FD 00 AD B7 02 66 00 EF
  158.996697604  1  80    Rx   d 19  80 64 00 6E B0 AF 94 02 59 00 A8 FD 00 AD B7 02 66 00 EF
  160.005472570  1  80    Rx   d 19  80 64 00 6E B0 AF 94 02 59 00 A8 FD 00 AD B7 02 66 00 EF
  161.007289022  1  80    Rx   d 19  80 64 00 6E B0 AF 94 02 59 00 A8 FD 00 AD B7 02 66 00 EF
  161.997507334  1  80    Rx   d 19  80 64 00 6E B0 AF 94 02 59 00 A8 FD 00 AD B7 02 66 00 EF
  163.008159995  1  80    Rx   d 19  80 64 00 6E B0 AF 94 02 59 00 A8 FD 00 AD B7 02 66 00 EF
  163.997148335  1  80    Rx   d 19  80 64 00 6E B0 AF 94 02 59 00 A8 FD 00 AD B7 02 66 00 EF
  165.007961392  1  80    Rx   d 19  80 64 00 6E B0 AF 94 02 59 00 A8 FD 00 AD B7 02 66 00 EF
  166.008124262  1  80    Rx   d 19  80 64 00 6E B0 AF 94 02 59 00 A8 FD 00 AD B7 02 66 00 EF
  166.998534620  1  80    Rx   d 19  80 64 00 6E B0 AF 94 02 59 00 A8 FD 00 AD B7 02 66 00 EF
  168.008986830  1  80    Rx   d 19  80 64 00 6E B0 AF 94 02 59 00 A8 FD 00 AD B7 02 66 00 EF
  168.993162900  1  80    Rx   d 19  80 64 00 6E B0 AF 94 02 59 00 A8 FD 00 AD B7 02 66 00 EF
  169.993289798  1  80    Rx   d 19  80 64 00 6E B0 AF 94 02 59 00 A8 FD 00 AD B7 02 66 00 EF
  171.007913172  1  80    Rx   d 19  80 64 00 6E B0 AF 94 02 59 00 A8 FD 00 AD B7 02 66 00 EF
  171.993223995  1  80    Rx   d 19  80 64 00 6E B0 AF 94 02 59 00 A8 FD 00 AD B7 02 66 00 EF
  172.997139394  1  80    Rx   d 19  80 64 00 6E B0 AF 94 02 59 00 A8 FD 00 AD B7 02 66 00 EF
  174.007605850  1  80    Rx   d 19  80 64 00 6E B0 AF 94 02 59 00 A8 FD 00 AD B7 02 66 00 EF
  174.997676313  1  80    Rx   d 19  80 64 00 6E B0 AF 94 02 59 00 A8 FD 00 AD B7 02 66 00 EF
  175.994023978  1  80    Rx   d 19  80 64 00 6E B0 AF 94 02 59 00 A8 FD 00 AD B7 02 66 00 EF
  176.997175604  1  80    Rx   d 19  80 64 00 6E B0 AF 94 02 59 00 A8 FD 00 AD B7 02 66 00 EF
  178.006879896  1  80    Rx   d 19  80 64 00 6E B0 AF 94 02 59 00 A8 FD 00 AD B7 02 66 00 EF
  178.997754603  1  80    Rx   d 19  80 64 00 6E B0 AF 94 02 59 00 A8 FD 00 AD B7 02 66 00 EF
  180.007555574  1  80    Rx   d 19  80 64 00 6E B0 AF 94 02 59 00 A8 FD 00 AD B7 02 66 00 EF
  181.006927371  1  80    Rx   d 19  80 64 00 6E B0 AF 94 02 59 00 A8 FE 00 AD B7 02 66 00 EE
  182.012184560  1  80    Rx   d 19  80 64 00 6E B0 AF 94 02 59 00 A8 FD 00 AD B7 02 66 00 EF
  182.996221125  1  80    Rx   d 19  80 64 00 6E B0 AF 94 02 59 00 A8 FE 00 AD B7 02 66 00 EE
  184.006918102  1  80    Rx   d 19  80 64 00 6E B0 AF 94 02 59 00 A8 FD 00 AD B7 02 66 00 EF
  184.997619629  1  80    Rx   d 19  80 64 00 6E B0 AF 94 02 59 00 A8 FD 00 AD B7 02 66 00 EF
  185.996996134  1  80    Rx   d 19  80 64 00 6E B0 AF 94 02 59 00 A8 FD 00 AD B7 02 66 00 EF
  186.996937454  1  80    Rx   d 19  80 64 00 6E B0 AF 94 02 59 00 A8 FD 00 AD B7 02 66 00 EF
  187.996867567  1  80    Rx   d 19  80 64 00 6E B0 AF 94 02 59 00 A8 FD 00 AD B7 02 66 00 EF
  189.007604718  1  80    Rx   d 19  80 64 00 6E B0 AF 94 02 59 00 A8 FD 00 AD B7 02 66 00 EF
  189.997285366  1  80    Rx   d 19  80 64 00 6E B0 AF 94 02 59 00 A8 FD 00 AD B7 02 66 00 EF
  191.006216466  1  80    Rx   d 19  80 64 00 6E B0 AF 94 02 59 00 A8 FD 00 AD B7 02 66 00 EF
  191.996581584  1  80    Rx   d 19  80 64 00 6E B0 AF 94 02 59 00 A8 FE 00 AD B7 02 66 00 EE
  192.996513307  1  80    Rx   d 19  80 64 00 6E B0 AF 94 02 59 00 A8 FD 00 AD B7 02 66 00 EF
  193.996455401  1  80    Rx   d 19  80 64 00 6E B0 AF 94 02 59 00 A8 FE 00 AD B7 02 66 00 EE
  195.006526470  1  80    Rx   d 19  80 64 00 6E B0 AF 94 02 59 00 A8 FD 00 AD B7 02 66 00 EF
  195.996864021  1  80    Rx   d 19  80 64 00 6E B0 AF 94 02 59 00 A8 FD 00 AD B7 02 66 00 EF
  197.006095916  1  80    Rx   d 19  80 64 00 6E B0 AF 8D 02 59 00 A8 FD 00 AD B7 02 66 00 F6
  197.996121049  1  80    Rx   d 19  80 64 00 6E B0 AF 8D 02 59 00 A8 FD 00 AD B7 02 66 00 F6
  199.021436155  1  80    Rx   d 19  80 64 00 6E B0 AF 8D 02 59 00 A8 FD 00 AD B7 02 66 00 F6
  199.996546447  1  80    Rx   d 19  80 64 00 6E B0 AF 8D 02 59 00 A8 FD 00 AD B7 02 66 00 F6
  201.006491124  1  80    Rx   d 19  80 64 00 6E B0 AF 8D 02 59 00 A8 FD 00 AD B7 02 66 00 F6
  201.996091097  1  80    Rx   d 19  80 64 00 6E B0 AF 8D 02 59 00 A8 FD 00 AD B7 02 66 00 F6
  203.005973786  1  80    Rx   d 19  80 64 00 6E B0 AF 8D 02 59 00 A8 FD 00 AD B7 02 66 00 F6
  203.996376902  1  80    Rx   d 19  80 64 00 6E B0 AF 8D 02 59 00 A8 FD 00 AD B7 02 66 00 F6
  204.996899009  1  80    Rx   d 19  80 64 00 6E B0 AF 8D 02 59 00 A8 FD 00 AD B7 02 66 00 F6
  205.996678740  1  80    Rx   d 19  80 64 00 6E B0 AF 8D 02 59 00 A8 FD 00 AD B7 02 66 00 F6
  206.996447265  1  80    Rx   d 19  80 64 00 6E B0 AF 8D 02 59 00 A8 FD 00 AD B7 02 66 00 F6
  207.997220248  1  80    Rx   d 19  80 64 00 6E B0 AF 8D 02 59 00 A8 FE 00 AD B7 02 66 00 F5
  209.005631655  1  80    Rx   d 19  80 64 00 6E B0 AF 8D 02 59 00 A8 FD 00 AD B7 02 66 00 F6
  209.996535986  1  80    Rx   d 19  80 64 00 6E B0 AF 8D 02 59 00 A8 FD 00 AD B7 02 66 00 F6
  211.005597114  1  80    Rx   d 19  80 64 00 6E B0 AF 8D 02 59 00 A8 FD 00 AD B7 02 66 00 F6
  211.995975524  1  80    Rx   d 19  80 64 00 6E B0 AF 8D 02 59 00 A8 FD 00 AD B7 02 66 00 F6
  213.005354523  1  80    Rx   d 19  80 64 00 6E B0 AF 8D 02 59 00 A8 FD 00 AD B6 02 66 00 F7
  213.995886475  1  80    Rx   d 19  80 64 00 6E B0 AF 8D 02 59 00 A8 FD 00 AD B7 02 66 00 F6
  215.005435198  1  80    Rx   d 19  80 64 00 6E B0 AF 8D 02 59 00 A8 FD 00 AD B7 02 66 00 F6
  215.996304303  1  80    Rx   d 19  80 64 00 6E AE AF 8D 02 59 00 A8 FD 00 AD B7 02 66 00 F8
  217.005657822  1  80    Rx   d 19  80 64 00 6E AE AF 8D 02 59 00 A8 FD 00 AD B6 02 66 00 F9
  217.996517747  1  80    Rx   d 19  80 64 00 6E AE AF 8D 02 59 00 A8 FD 00 AD B6 02 66 00 F9
  219.005262822  1  80    Rx   d 19  80 64 00 6E AE AF 8D 02 59 00 A8 FD 00 AD B3 02 66 00 FC
  219.995968371  1  80    Rx   d 19  80 64 00 6E AE AF 8D 02 59 00 A8 FD 00 AD B6 02 66 00 F9
  221.005504697  1  80    Rx   d 19  80 64 00 6E AE AF 8D 02 59 00 A8 FE 00 AD B7 02 66 00 F7
  221.996521503  1  80    Rx   d 19  80 64 00 6E AE AF 8D 02 59 00 A8 FD 00 AD B7 02 66 00 F8
  223.005151331  1  80    Rx   d 19  80 64 00 6E AE AF 8D 02 59 00 A8 FD 00 AD B4 02 66 00 FB
  223.995690673  1  80    Rx   d 19  80 64 00 6E AE AF 8D 02 59 00 A8 FD 00 AD B5 02 66 00 FA
  225.005407125  1  80    Rx   d 19  80 64 00 6E AE AF 8D 02 59 00 A8 FD 00 AD B5 02 66 00 FA
  225.995929509  1  80    Rx   d 19  80 64 00 6E AE AF 8D 02 59 00 A8 FD 00 AD B5 02 66 00 FA
  227.004492849  1  80    Rx   d 19  80 64 00 6E AE AF 8D 02 59 00 A8 FD 00 AD B2 02 66 00 FD
  227.996040523  1  80    Rx   d 19  80 64 00 6E AE AF 8D 02 59 00 A8 FD 00 AD B3 02 66 00 FC
  228.018636405  1  80    Rx   d 19  80 64 00 6E AE AF 8D 02 59 00 A8 FD 00 AD B3 02 66 00 FC
  229.004303664  1  80    Rx   d 19  80 64 00 6E AE AF 8D 02 59 00 A8 FD 00 AD B4 02 66 00 FB
  229.996335149  1  80    Rx   d 19  80 64 00 6E AE AF 8D 02 59 00 A8 FD 00 AD B2 02 66 00 FD
  231.004287123  1  80    Rx   d 19  80 64 00 6E AE AF 8D 02 59 00 A8 FD 00 AD B2 02 66 00 FD
  231.995921790  1  80    Rx   d 19  80 64 00 6E AE AF 8D 02 59 00 A8 FD 00 AD B0 02 66 00 FF
  233.004177332  1  80    Rx   d 19  80 64 00 6E AE AF 8D 02 59 00 A8 FD 00 AD AC 02 66 00 03
  233.995761663  1  80    Rx   d 19  80 64 00 6E AE AF 8D 02 59 00 A8 FE 00 AD B5 02 66 00 F9
  235.004191756  1  80    Rx   d 19  80 64 00 6E AE AF 8D 02 59 00 A8 FD 00 AD B4 02 66 00 FB
  236.005663723  1  80    Rx   d 19  80 64 00 6E AE AF 8D 02 59 00 A8 FD 00 AD AF 02 66 00 00
  237.004081845  1  80    Rx   d 19  80 64 00 6E AE AF 8D 02 59 00 A8 FD 00 AD AE 02 66 00 01
  237.995208561  1  80    Rx   d 19  80 64 00 6E AE AF 8D 02 59 00 A8 FD 00 AD AD 02 66 00 02
  239.004320889  1  80    Rx   d 19  80 64 00 6E AE AF 8D 02 59 00 A8 FD 00 AD AF 02 66 00 00
  239.996143609  1  80    Rx   d 19  80 64 00 6E AE AF 8D 02 59 00 A8 FD 00 AD AF 02 66 00 00
  241.004044741  1  80    Rx   d 19  80 64 00 6E AE AF 8D 02 59 00 A8 FD 00 AD AA 02 66 00 05
  241.996059149  1  80    Rx   d 19  80 64 00 6E AE AF 8D 02 59 00 A8 FD 00 AD AF 02 66 00 00
  242.995954424  1  80    Rx   d 19  80 64 00 6E AE AF 8D 02 59 00 A8 FD 00 AD AB 02 66 00 04
  244.004113495  1  80    Rx   d 19  80 64 00 6E AE AF 8D 02 59 00 A8 FD 00 AD AA 02 66 00 05
  244.995661050  1  80    Rx   d 19  80 64 00 6E AE AF 8D 02 59 00 A8 FD 00 AD A9 02 66 00 06
  246.003879756  1  80    Rx   d 19  80 64 00 6E AE AF 8D 02 59 00 A8 FD 00 AD AA 02 66 00 05
  246.995987266  1  80    Rx   d 19  80 64 00 6E AE AF 8D 02 59 00 A8 FD 00 AD A9 02 66 00 06
  248.003901601  1  80    Rx   d 19  80 64 00 6E AE AF 8D 02 59 00 A8 FE 00 AD AE 02 66 00 00
  248.995531946  1  80    Rx   d 19  80 64 00 6E AE AF 8D 02 59 00 A8 FD 00 AD A9 02 66 00 06
  250.003807068  1  80    Rx   d 19  80 64 00 6E AE AF 8D 02 59 00 A8 FD 00 AD A9 02 66 00 06
  250.995457798  1  80    Rx   d 19  80 64 00 6E AE AF 8D 02 59 00 A8 FD 00 AD A9 02 66 00 06
  252.004041701  1  80    Rx   d 19  80 64 00 6E AE AF 8D 02 59 00 A8 FD 00 AD AB 02 66 00 04
  252.995657235  1  80    Rx   d 19  80 64 00 6E AE AF 8D 02 59 00 A8 FD 00 AD A9 02 66 00 06
  254.003862351  1  80    Rx   d 19  80 64 00 6E AE AF 8D 02 59 00 A8 FD 00 AD A9 02 66 00 06
  254.997303873  1  80    Rx   d 19  80 64 00 6E AE AF 8D 02 59 00 A8 FD 00 AD A9 02 66 00 06
  257.005136311  1  80    Rx   d 19  80 64 00 6E AE AF 8D 02 59 00 A8 FD 00 AD A9 02 66 00 06
  257.994087904  1  80    Rx   d 19  80 64 00 6E AE AF 8D 02 59 00 A8 FD 00 AD A9 02 66 00 06
  259.026187658  1  80    Rx   d 19  80 64 00 6E AE AF 86 02 59 00 A8 FD 00 AD A9 02 66 00 0D
  260.003709525  1  80    Rx   d 19  80 64 00 6E AE AF 86 02 59 00 A8 FD 00 AD A9 02 66 00 0D
  261.016286164  1  80    Rx   d 19  80 64 00 6E AE AF 86 02 59 00 A8 FD 00 AD A9 02 66 00 0D
  262.003551423  1  80    Rx   d 19  80 64 00 6E AE AF 86 02 59 00 A8 FD 00 AD A9 02 66 00 0D
  262.995046526  1  80    Rx   d 19  80 64 00 6E AE AF 86 02 59 00 A8 FD 00 AD A9 02 66 00 0D
  264.004562437  1  80    Rx   d 19  80 64 00 6E AE AF 86 02 59 00 A8 FD 00 AD A9 02 66 00 0D
  265.006187737  1  80    Rx   d 19  80 64 00 6E AE AF 86 02 59 00 A8 FD 00 AD A9 02 66 00 0D
  266.004523903  1  80    Rx   d 19  80 64 00 6E AE AF 86 02 59 00 A8 FD 00 AD A9 02 66 00 0D
  267.002252489  1  80    Rx   d 19  80 64 00 6E AE AF 86 02 59 00 A8 FD 00 AD A9 02 66 00 0D
  267.024920344  1  80    Rx   d 19  80 64 00 6E AE AF 86 02 59 00 A8 FD 00 AD A9 02 66 00 0D
  267.995474398  1  80    Rx   d 19  80 64 00 6E AE AF 86 02 59 00 A8 FD 00 AD A9 02 66 00 0D
  268.994559347  1  80    Rx   d 19  80 64 00 6E AE AF 86 02 59 00 A8 FD 00 AD A9 02 66 00 0D
  270.003566474  1  80    Rx   d 19  80 64 00 6E AE AF 86 02 59 00 A8 FD 00 AD A9 02 66 00 0D
  270.994608015  1  80    Rx   d 19  80 64 00 6E AE AF 86 02 59 00 A8 FD 00 AD A9 02 66 00 0D
  272.003449529  1  80    Rx   d 19  80 64 00 6E AE AF 86 02 59 00 A8 FD 00 AD A9 02 66 00 0D
  272.994636923  1  80    Rx   d 19  80 64 00 6E AE AF 86 02 59 00 A8 FD 00 AD A9 02 66 00 0D
  274.003387779  1  80    Rx   d 19  80 64 00 6E AE AF 86 02 59 00 A8 FE 00 AD A9 02 66 00 0C
  274.994410127  1  80    Rx   d 19  80 64 00 6E AE AF 86 02 59 00 A8 FD 00 AD A9 02 66 00 0D
  276.019721269  1  80    Rx   d 19  80 64 00 6E AE AF 86 02 59 00 A8 FD 00 AD A9 02 66 00 0D
  276.994282812  1  80    Rx   d 19  80 64 00 6E AE AF 86 02 59 00 A8 FD 00 AD A9 02 66 00 0D
  277.994911343  1  80    Rx   d 19  80 64 00 6E AE AF 86 02 59 00 A8 FD 00 AD A9 02 66 00 0D
  278.994230300  1  80    Rx   d 19  80 64 00 6E AE AF 86 02 59 00 A8 FD 00 AD A9 02 66 00 0D
  279.994249999  1  80    Rx   d 19  80 64 00 6E AE AF 86 02 59 00 A8 FD 00 AD A9 02 66 00 0D
  281.003252327  1  80    Rx   d 19  80 64 00 6E AE AF 86 02 59 00 A8 FD 00 AD A9 02 66 00 0D
  281.994556695  1  80    Rx   d 19  80 64 00 6E AE AF 86 02 59 00 A8 FD 00 AD A9 02 66 00 0D
  283.021371782  1  80    Rx   d 19  80 64 00 6E AE AF 86 02 59 00 A8 FD 00 AD A9 02 66 00 0D
  283.994020551  1  80    Rx   d 19  80 64 00 6E AE AF 86 02 59 00 A8 FD 00 AD A9 02 66 00 0D
  285.004201174  1  80    Rx   d 19  80 64 00 6E AE AF 86 02 59 00 A8 FE 00 AD A9 02 66 00 0C
  286.004109800  1  80    Rx   d 19  80 64 00 6E AE AF 86 02 59 00 A8 FD 00 AD A9 02 66 00 0D
  286.994123399  1  80    Rx   d 19  80 64 00 6E AE AF 86 02 59 00 A8 FD 00 AD A9 02 66 00 0D
  287.995141119  1  80    Rx   d 19  80 64 00 6E AE AF 86 02 59 00 A8 FD 00 AD A9 02 66 00 0D
  288.994437635  1  80    Rx   d 19  80 64 00 6E AE AF 86 02 59 00 A8 FD 00 AD A9 02 66 00 0D
  289.994040191  1  80    Rx   d 19  80 64 00 6E AE AF 86 02 59 00 A8 FD 00 AD A9 02 66 00 0D
  291.003925144  1  80    Rx   d 19  80 64 00 6E AE AF 86 02 59 00 A8 FD 00 AD A9 02 66 00 0D
  292.003894239  1  80    Rx   d 19  80 64 00 6E AE AF 86 02 59 00 A8 FD 00 AD A9 02 66 00 0D
  292.993891716  1  80    Rx   d 19  80 64 00 6E AE AF 86 02 59 00 A8 FD 00 AD A9 02 66 00 0D
  294.000571042  1  80    Rx   d 19  80 64 00 6E AE AF 86 02 59 00 A8 FD 00 AD A9 02 66 00 0D
  295.003996670  1  80    Rx   d 19  80 64 00 6E AE AF 86 02 59 00 A8 FD 00 AD A9 02 66 00 0D
  296.001781225  1  80    Rx   d 19  80 64 00 6E AE AF 86 02 59 00 A8 FD 00 AD A9 02 66 00 0D
  297.003843337  1  80    Rx   d 19  80 64 00 6E AE AF 86 02 59 00 A8 FD 00 AD A9 02 66 00 0D
  297.990277380  1  80    Rx   d 19  80 64 00 6E AE AF 86 02 59 00 A8 FD 00 AD A9 02 66 00 0D
  299.003802806  1  80    Rx   d 19  80 64 00 6E AE AF 86 02 59 00 A8 FD 00 AD A9 02 66 00 0D
  300.004392147  1  80    Rx   d 19  80 64 00 6E AE AF 86 02 59 00 A8 FD 00 AD A9 02 66 00 0D
  300.991053402  1  80    Rx   d 19  80 64 00 6E AE AF 86 02 59 00 A8 FD 00 AD A9 02 66 00 0D
  301.991278171  1  80    Rx   d 19  80 64 00 6E AE AF 86 02 59 00 A8 FD 00 AD A9 02 66 00 0D
  303.002824217  1  80    Rx   d 19  80 64 00 6E AE AF 86 02 59 00 A8 FE 00 AD A7 02 66 00 0E
  303.979627311  1  80    Rx   d  5  80 64 00 6E AE
  304.002276361  1  80    Rx   d 19  80 64 00 6E AE AF 86 02 59 00 A8 FD 00 AD A6 02 66 00 10
  304.994331121  1  80    Rx   d 19  80 64 00 6E AE AF 86 02 59 00 A8 FD 00 AD A9 02 66 00 0D
  306.006521761  1  80    Rx   d 19  80 64 00 6E AE AF 86 02 59 00 A8 FD 00 AD A9 02 66 00 0D
  306.985248834  1  80    Rx   d 19  80 64 00 6E AE AF 86 02 59 00 A8 FD 00 AD A9 02 66 00 0D
  308.003962934  1  80    Rx   d 19  80 64 00 6E AE AF 86 02 59 00 A8 FD 00 AD A8 02 66 00 0E
  308.993490934  1  80    Rx   d 19  80 64 00 6E AE AF 86 02 59 00 A8 FD 00 AD A9 02 66 00 0D
  309.999054551  1  80    Rx   d 19  80 64 00 6E AE AF 86 02 59 00 A8 FD 00 AD A9 02 66 00 0D
  310.993434846  1  80    Rx   d 19  80 64 00 6E AE AF 86 02 59 00 A8 FD 00 AD A9 02 66 00 0D
  311.994307369  1  80    Rx   d 19  80 64 00 6E AE AF 86 02 59 00 A8 FE 00 AD A8 02 66 00 0D
  313.002580136  1  80    Rx   d 19  80 64 00 6E AE AF 86 02 59 00 A8 FD 00 AD A4 02 66 00 12
  313.992983311  1  80    Rx   d 19  80 64 00 6E AE AF 86 02 59 00 A8 FD 00 AD A4 02 66 00 12
  315.003305197  1  80    Rx   d 19  80 64 00 6E AE AF 86 02 59 00 A8 FD 00 AD A8 02 66 00 0E
  315.993295610  1  80    Rx   d 19  80 64 00 6E AE AF 86 02 59 00 A8 FD 00 AD A8 02 66 00 0E
  317.002480358  1  80    Rx   d 19  80 64 00 6E AE AF 86 02 59 00 A8 FD 00 AD A5 02 66 00 11
  317.992281168  1  80    Rx   d 19  80 64 00 6E AE AF 86 02 59 00 A8 FD 00 AD A8 02 66 00 0E
  319.002380669  1  80    Rx   d 19  80 64 00 6E AE AF 86 02 59 00 A8 FD 00 AD A5 02 66 00 11
  320.003522813  1  80    Rx   d 19  80 64 00 6E AE AF 86 02 59 00 A8 FD 00 AD A6 02 66 00 10
  320.997766286  1  80    Rx   d 19  80 64 00 6E AE AF 86 02 59 00 A8 FD 00 AD A2 02 66 00 14
  322.002319842  1  80    Rx   d 19  80 64 00 6E AE AF 86 02 59 00 A8 FD 00 AD A2 02 66 00 14
  322.992289036  1  80    Rx   d 19  80 64 00 6E AE AF 86 02 59 00 A8 FD 00 AD A4 02 66 00 12
  323.994878322  1  80    Rx   d 19  80 64 00 6E AE AF 86 02 59 00 A8 FD 00 AD A3 02 66 00 13
  324.992368549  1  80    Rx   d 19  80 64 00 6E AE AF 86 02 59 00 A8 FD 00 AD A6 02 66 00 10
  325.993648648  1  80    Rx   d 19  80 64 00 6E AE AF 86 02 59 00 A8 FE 00 AD A2 02 66 00 13
  326.999827087  1  80    Rx   d 19  80 64 00 6E AE AF 86 02 59 00 A8 FD 00 AD A0 02 66 00 16
  327.992109209  1  80    Rx   d 19  80 64 00 6E AE AF 86 02 59 00 A8 FD 00 AD 9E 02 66 00 18
  328.992060393  1  80    Rx   d 19  80 64 00 6E AE AF 86 02 59 00 A8 FD 00 AD A4 02 66 00 12
  330.003595292  1  80    Rx   d 19  80 64 00 6E AE AF 86 02 59 00 A8 FD 00 AD 9C 02 66 00 1A
  331.002006084  1  80    Rx   d 19  80 64 00 6E AE AF 7F 02 59 00 A8 FD 00 AD A5 02 66 00 18
  331.995565980  1  80    Rx   d 19  80 64 00 6E AE AF 7F 02 59 00 A8 FD 00 AD 9F 02 66 00 1E
  332.993069410  1  80    Rx   d 19  80 64 00 6E AE AF 7F 02 59 00 A8 FD 00 AD A0 02 66 00 1D
  333.993372768  1  80    Rx   d 19  80 64 00 6E AE AF 7F 02 59 00 A8 FD 00 AD A0 02 66 00 1D
  334.992877364  1  80    Rx   d 19  80 64 00 6E AE AF 7F 02 59 00 A8 FD 00 AD 9C 02 66 00 21
  336.002983659  1  80    Rx   d 19  80 64 00 6E AE AF 7F 02 59 00 A8 FD 00 AD 9C 02 66 00 21
  336.993005663  1  80    Rx   d 19  80 64 00 6E AE AF 7F 02 59 00 A8 FE 00 AD 9C 02 66 00 20
  338.002495050  1  80    Rx   d 19  80 64 00 6E AE AF 7F 02 59 00 A8 FD 00 AD A3 02 66 00 1A
  338.983322233  1  80    Rx   d 19  80 64 00 6E AE AF 7F 02 59 00 A8 FD 00 AD 9E 02 66 00 1F
  340.003145516  1  80    Rx   d 19  80 64 00 6E AE AF 7F 02 59 00 A8 FD 00 AD 9D 02 66 00 20
  340.992473125  1  80    Rx   d 19  80 64 00 6E AE AF 7F 02 59 00 A8 FD 00 AD 9F 02 66 00 1E
  341.989402950  1  80    Rx   d 19  80 64 00 6E AE AF 7F 02 59 00 A8 FD 00 AD 9D 02 66 00 20
  342.992351860  1  80    Rx   d 19  80 64 00 6E AE AF 7F 02 59 00 A8 FD 00 AD 9D 02 66 00 20
  343.995324790  1  80    Rx   d 19  80 64 00 6E AE AF 7F 02 59 00 A8 FD 00 AD 9C 02 66 00 21
  345.002731561  1  80    Rx   d 19  80 64 00 6E AE AF 7F 02 59 00 A8 FD 00 AD 9C 02 66 00 21
  345.997163057  1  80    Rx   d 19  80 64 00 6E AE AF 7F 02 59 00 A8 FD 00 AD 9C 02 66 00 21
  346.987599730  1  80    Rx   d  5  80 64 00 6E AE
  347.010278523  1  80    Rx   d 19  80 64 00 6E AE AF 7F 02 59 00 A8 FD 00 AD 9C 02 66 00 21
  347.983295709  1  80    Rx   d 19  80 64 00 6E AE AF 7F 02 59 00 A8 FD 00 AD 9C 02 66 00 21
  349.009960055  1  80    Rx   d 19  80 64 00 6E AE AF 7F 02 59 00 A8 FD 00 AD 9F 02 66 00 1E
  349.992241025  1  80    Rx   d 19  80 64 00 6E AE AF 7F 02 59 00 A8 FD 00 AD 9C 02 66 00 21
  351.001524150  1  80    Rx   d 19  80 64 00 6E AE AF 7F 02 59 00 A8 FD 00 AD 9C 02 66 00 21
  352.001438379  1  80    Rx   d 19  80 64 00 6E AE AF 7F 02 59 00 A8 FD 00 AD 9C 02 66 00 21
  352.999134600  1  80    Rx   d 19  80 64 00 6E AE AF 7F 02 59 00 A8 FD 00 AD 9C 02 66 00 21
  354.001459896  1  80    Rx   d 19  80 64 00 6E AE AF 7F 02 59 00 A8 FD 00 AD 9C 02 66 00 21
  354.997074574  1  80    Rx   d 19  80 64 00 6E AE AF 7F 02 59 00 A8 FD 00 AD 9C 02 66 00 21
  356.002079040  1  80    Rx   d 19  80 64 00 6E AE AF 7F 02 59 00 A8 FD 00 AD 9C 02 66 00 21
  356.991929769  1  80    Rx   d 19  80 64 00 6E AE AF 7F 02 59 00 A8 FD 00 AD 9C 02 66 00 21
  358.001836568  1  80    Rx   d 19  80 64 00 6E AE AF 7F 02 59 00 A8 FD 00 AD 9C 02 66 00 21
  358.995974481  1  80    Rx   d 19  80 64 00 6E AE AF 7F 02 59 00 A8 FD 00 AD 9C 02 66 00 21
  360.013637781  1  80    Rx   d 19  80 64 00 6E AE AF 7F 02 59 00 A8 FD 00 AD 9C 02 66 00 21
  362.013390988  1  80    Rx   d 19  80 64 00 6E AE AF 7F 02 59 00 A8 FD 00 AD 9C 02 66 00 21
  363.001815021  1  80    Rx   d 19  80 64 00 6E AE AF 7F 02 59 00 A8 FD 00 AD 9C 02 66 00 21
  364.001304805  1  80    Rx   d 19  80 64 00 6E AE AF 7F 02 59 00 A8 FE 00 AD 9C 02 66 00 20
  364.992246270  1  80    Rx   d 19  80 64 00 6E AE AF 7F 02 59 00 A8 FE 00 AD 9C 02 66 00 20
  366.001276791  1  80    Rx   d 19  80 64 00 6E AE AF 7F 02 59 00 A8 FD 00 AD 9C 02 66 00 21
  366.991683602  1  80    Rx   d 19  80 64 00 6E AE AF 7F 02 59 00 A8 FD 00 AD 9C 02 66 00 21
  368.001592725  1  80    Rx   d 19  80 64 00 6E AE AF 7F 02 59 00 A8 FD 00 AD 9C 02 66 00 21
  368.991805553  1  80    Rx   d 19  80 64 00 6E AE AF 7F 02 59 00 A8 FD 00 AD 9C 02 66 00 21
  369.991972804  1  80    Rx   d 19  80 64 00 6E AE AF 7F 02 59 00 A8 FD 00 AD 9C 02 66 00 21
  371.001467705  1  80    Rx   d 19  80 64 00 6E AE AF 7F 02 59 00 A8 FD 00 AD 9C 02 66 00 21
  371.991660923  1  80    Rx   d 19  80 64 00 6E AE AF 7F 02 59 00 A8 FD 00 AD 9C 02 66 00 21
  373.011025071  1  80    Rx   d 19  80 64 00 6E AE AF 7F 02 59 00 A8 FD 00 AD 9C 02 66 00 21
  374.012216031  1  80    Rx   d 19  80 64 00 6E AE AF 7F 02 59 00 A8 FD 00 AD 9C 02 66 00 21
  374.991179496  1  80    Rx   d 19  80 64 00 6E AE AF 7F 02 59 00 A8 FD 00 AD 9C 02 66 00 21
  376.000937074  1  80    Rx   d 19  80 64 00 6E AE AF 7F 02 59 00 A8 FD 00 AD 9C 02 66 00 21
  376.990850717  1  80    Rx   d 19  80 64 00 6E AE AF 7F 02 59 00 A8 FD 00 AD 9C 02 66 00 21
  378.000720262  1  80    Rx   d 19  80 64 00 6E AE AF 7F 02 59 00 A8 FD 00 AD 9C 02 66 00 21
  378.990843892  1  80    Rx   d 19  80 64 00 6E AE AF 7F 02 59 00 A8 FD 00 AD 9C 02 66 00 21
  380.000997424  1  80    Rx   d 19  80 64 00 6E AE AF 7F 02 59 00 A8 FD 00 AD 9C 02 66 00 21
  380.990708291  1  80    Rx   d 19  80 64 00 6E AE AF 7F 02 59 00 A8 FD 00 AD 9C 02 66 00 21
  382.000627845  1  80    Rx   d 19  80 64 00 6E AE AF 7F 02 59 00 A8 FD 00 AD 9C 02 66 00 21
  382.990661889  1  80    Rx   d 19  80 64 00 6E AE AF 7F 02 59 00 A8 FD 00 AD 9C 02 66 00 21
  384.000575334  1  80    Rx   d 19  80 64 00 6E AE AF 7F 02 59 00 A8 FD 00 AD 9C 02 66 00 21
  384.990751028  1  80    Rx   d 19  80 64 00 6E AE AF 7F 02 59 00 A8 FD 00 AD 9C 02 66 00 21
  386.000556618  1  80    Rx   d 19  80 64 00 6E AE AF 7F 02 59 00 A8 FD 00 AD 9C 02 66 00 21
  386.990562230  1  80    Rx   d 19  80 64 00 6E AE AF 7F 02 59 00 A8 FD 00 AD 9C 02 66 00 21
  388.027750760  1  80    Rx   d 19  80 64 00 6E AE AF 7F 02 59 00 A8 FD 00 AD 9C 02 66 00 21
  388.990602225  1  80    Rx   d 19  80 64 00 6E AE AF 7F 02 59 00 A8 FD 00 AD 9C 02 66 00 21
  390.000759780  1  80    Rx   d 19  80 64 00 6E AE AF 7F 02 59 00 A8 FD 00 AD 9C 02 66 00 21
  390.990795404  1  80    Rx   d 19  80 64 00 6E AE AF 78 02 59 00 A8 FD 00 AD 9C 02 66 00 28
  392.000546962  1  80    Rx   d 19  80 64 00 6E AE AF 78 02 59 00 A8 FD 00 AD 9C 02 66 00 28
  394.000393361  1  80    Rx   d 19  80 64 00 6E AE AF 78 02 59 00 A8 FD 00 AD 9C 02 66 00 28
  394.990422994  1  80    Rx   d 19  80 64 00 6E AE AF 78 02 59 00 A8 FD 00 AD 9C 02 66 00 28
  396.000305354  1  80    Rx   d 19  80 64 00 6E AE AF 78 02 59 00 A8 FD 00 AD 9C 02 66 00 28
  396.990593374  1  80    Rx   d 19  80 64 00 6E AE AF 78 02 59 00 A8 FD 00 AD 9C 02 66 00 28
  398.000240564  1  80    Rx   d 19  80 64 00 6E AE AF 78 02 59 00 A8 FD 00 AD 9C 02 66 00 28
  398.991435766  1  80    Rx   d 19  80 64 00 6E AE AF 78 02 59 00 A8 FD 00 AD 9C 02 66 00 28
  400.000196546  1  80    Rx   d 19  80 64 00 6E AE AF 78 02 59 00 A8 FD 00 AD 9C 02 66 00 28
  400.990211099  1  80    Rx   d 19  80 64 00 6E AE AF 78 02 59 00 A8 FD 00 AD 9C 02 66 00 28
  402.000151753  1  80    Rx   d 19  80 64 00 6E AE AF 78 02 59 00 A8 FD 00 AD 9C 02 66 00 28
  402.990154624  1  80    Rx   d 19  80 64 00 6E AE AF 78 02 59 00 A8 FD 00 AD 9C 02 66 00 28
  404.000196188  1  80    Rx   d 19  80 64 00 6E AE AF 78 02 59 00 A8 FD 00 AD 9C 02 66 00 28
  404.990281433  1  80    Rx   d 19  80 64 00 6E AE AF 78 02 59 00 A8 FD 00 AD 9C 02 66 00 28
  406.000102997  1  80    Rx   d 19  80 64 00 6E AE AF 78 02 59 00 A8 FD 00 AD 9C 02 66 00 28
  407.003464341  1  80    Rx   d 19  80 64 00 6E AE AF 78 02 59 00 A8 FD 00 AD 9C 02 66 00 28
  408.000040889  1  80    Rx   d 19  80 64 00 6E AE AF 78 02 59 00 A8 FD 00 AD 9C 02 66 00 28
  408.990298658  1  80    Rx   d 19  80 64 00 6E AE AF 78 02 59 00 A8 FD 00 AD 9C 02 66 00 28
  409.999962628  1  80    Rx   d 19  80 64 00 6E AE AF 78 02 59 00 A8 FD 00 AD 9C 02 66 00 28
  410.990746677  1  80    Rx   d 19  80 64 00 6E AE AF 78 02 59 00 A8 FD 00 AD 9C 02 66 00 28
  411.999911070  1  80    Rx   d 19  80 64 00 6E AE AF 78 02 59 00 A8 FD 00 AD 9C 02 66 00 28
  412.990082323  1  80    Rx   d 19  80 64 00 6E AE AF 78 02 59 00 A8 FD 00 AD 9C 02 66 00 28
  413.999927908  1  80    Rx   d 19  80 64 00 6E AE AF 78 02 59 00 A8 FD 00 AD 9C 02 66 00 28
  414.999838501  1  80    Rx   d 19  80 64 00 6E AE AF 78 02 59 00 A8 FD 00 AD 9C 02 66 00 28
  416.009851277  1  80    Rx   d 19  80 64 00 6E AE AF 78 02 59 00 A8 FD 00 AD 9C 02 66 00 28
  416.989936381  1  80    Rx   d 19  80 64 00 6E AE AF 78 02 59 00 A8 FD 00 AD 9C 02 66 00 28
  418.019946694  1  80    Rx   d 19  80 64 00 6E AE AF 78 02 59 00 A8 FD 00 AD 9C 02 66 00 28
  418.999736577  1  80    Rx   d 19  80 64 00 6E AE AF 78 02 59 00 A8 FD 00 AD 9C 02 66 00 28
  420.003154993  1  80    Rx   d 19  80 64 00 6E AE AF 78 02 59 00 A8 FD 00 AD 9C 02 66 00 28
  421.010508150  1  80    Rx   d 19  80 64 00 6E AE AF 78 02 59 00 A8 FD 00 AD 9C 02 66 00 28
  421.990498602  1  80    Rx   d 19  80 64 00 6E AE AF 78 02 59 00 A8 FD 00 AD 9C 02 66 00 28
  422.999745399  1  80    Rx   d 19  80 64 00 6E AE AF 78 02 59 00 A8 FD 00 AD 9B 02 66 00 29
  424.019488364  1  80    Rx   d 19  80 64 00 6E AE AF 78 02 59 00 A8 FD 00 AD 9C 02 66 00 28
  424.989868402  1  80    Rx   d 19  80 64 00 6E AE AF 78 02 59 00 A8 FD 00 AD 9C 02 66 00 28
  426.020065576  1  80    Rx   d 19  80 64 00 6E AE AF 78 02 59 00 A8 FD 00 AD 9C 02 66 00 28
  426.991170883  1  80    Rx   d 19  80 64 00 6E AE AF 78 02 59 00 A8 FD 00 AD 9C 02 66 00 28
  428.010699451  1  80    Rx   d 19  80 64 00 6E AE AF 78 02 59 00 A8 FD 00 AD 9C 02 66 00 28
  428.990904122  1  80    Rx   d 19  80 64 00 6E AE AF 78 02 59 00 A8 FD 00 AD 9C 02 66 00 28
  429.999742925  1  80    Rx   d 19  80 64 00 6E AE AF 78 02 59 00 A8 FD 00 AD 9C 02 66 00 28
  431.019554704  1  80    Rx   d 19  80 64 00 6E AE AF 78 02 59 00 A8 FD 00 AD 9C 02 66 00 28
  431.990428865  1  80    Rx   d 19  80 64 00 6E AE AF 78 02 59 00 A8 FD 00 AD 9C 02 66 00 28
  432.999514013  1  80    Rx   d 19  80 64 00 6E AE AF 78 02 59 00 A8 FD 00 AD 9C 02 66 00 28
  433.990237653  1  80    Rx   d 19  80 64 00 6E AE AF 78 02 59 00 A8 FD 00 AD 9C 02 66 00 28
  434.999628871  1  80    Rx   d 19  80 64 00 6E AE AF 78 02 59 00 A8 FD 00 AD 9C 02 66 00 28
  436.009355634  1  80    Rx   d 19  80 64 00 6E AE AF 78 02 59 00 A8 FD 00 AD 9C 02 66 00 28
  436.999348908  1  80    Rx   d 19  80 64 00 6E AE AF 78 02 59 00 A8 FD 00 AD 9C 02 66 00 28
  437.989863366  1  80    Rx   d 19  80 64 00 6E AE AF 78 02 59 00 A8 FD 00 AD 9C 02 66 00 28
  438.999279558  1  80    Rx   d 19  80 64 00 6E AE AF 78 02 59 00 A8 FD 00 AD 9C 02 66 00 28
  439.989497781  1  80    Rx   d 19  80 64 00 6E AE AF 78 02 59 00 A8 FD 00 AD 9C 02 66 00 28
  441.009265154  1  80    Rx   d 19  80 64 00 6E AE AF 78 02 59 00 A8 FD 00 AD 9C 02 66 00 28
  441.991949767  1  80    Rx   d 19  80 64 00 6E AE AF 78 02 59 00 A8 FD 00 AD 9C 02 66 00 28
  443.000234186  1  80    Rx   d 19  80 64 00 6E AE AF 78 02 59 00 A8 FD 00 AD 9C 02 66 00 28
  443.989306301  1  80    Rx   d 19  80 64 00 6E AE AF 78 02 59 00 A8 FD 00 AD 9C 02 66 00 28
  444.999246686  1  80    Rx   d 19  80 64 00 6E AE AF 78 02 59 00 A8 FD 00 AD 9C 02 66 00 28
  446.004700362  1  80    Rx   d 19  80 64 00 6E AE AF 78 02 59 00 A8 FD 00 AD 9C 02 66 00 28
  446.999357104  1  80    Rx   d 19  80 64 00 6E AE AF 78 02 59 00 A8 FD 00 AD 99 02 66 00 2B
  447.989617169  1  80    Rx   d 19  80 64 00 6E AE AF 78 02 59 00 A8 FD 00 AD 9C 02 66 00 28
  448.999215156  1  80    Rx   d 19  80 64 00 6E AE AF 78 02 59 00 A8 FD 00 AD 9C 02 66 00 28
  449.990323603  1  80    Rx   d 19  80 64 00 6E AE AF 78 02 59 00 A8 FD 00 AD 9C 02 66 00 28
  451.009036600  1  80    Rx   d 19  80 64 00 6E AE AF 78 02 59 00 A8 FD 00 AD 9A 02 66 00 2A
  451.990112453  1  80    Rx   d 19  80 64 00 6E AE AF 78 02 59 00 A8 FD 00 AD 9A 02 66 00 2A
  452.990344256  1  80    Rx   d 19  80 64 00 6E AE AF 78 02 59 00 A8 FD 00 AD 95 02 66 00 2F
  453.989269376  1  80    Rx   d 19  80 64 00 6E AE AF 78 02 59 00 A8 FD 00 AD 97 02 66 00 2D
  454.989002764  1  80    Rx   d 19  80 64 00 6E AE AF 78 02 59 00 A8 FD 00 AD 9B 02 66 00 29
  456.008932113  1  80    Rx   d 19  80 64 00 6E AE AF 78 02 59 00 A8 FD 00 AD 9A 02 66 00 2A
  457.000320524  1  80    Rx   d 19  80 64 00 6E AE AF 78 02 59 00 A8 FD 00 AD 97 02 66 00 2D
  457.999022424  1  80    Rx   d 19  80 64 00 6E AE AF 78 02 59 00 A8 FD 00 AD 9B 02 66 00 29
  459.010185957  1  80    Rx   d 19  80 64 00 6E AE AF 78 02 59 00 A8 FD 00 AD 96 02 66 00 2E
  459.989110291  1  80    Rx   d 19  80 64 00 6E AE AF 78 02 59 00 A8 FD 00 AD 91 02 66 00 33
  461.000713438  1  80    Rx   d 19  80 64 00 6E AE AF 78 02 59 00 A8 FD 00 AD 99 02 66 00 2B
  461.990757912  1  80    Rx   d 19  80 64 00 6E AE AF 78 02 59 00 A8 FD 00 AD 96 02 66 00 2E
  462.989208191  1  80    Rx   d 19  80 64 00 6E AE AF 78 02 59 00 A8 FD 00 AD 93 02 66 00 31
  463.989968806  1  80    Rx   d 19  80 64 00 6E AE AF 78 02 59 00 A8 FD 00 AD 93 02 66 00 31
  464.989708245  1  80    Rx   d 19  80 64 00 6E AE AF 78 02 59 00 A8 FD 00 AD 92 02 66 00 32
  465.988904476  1  80    Rx   d 19  80 64 00 6E AE AF 78 02 59 00 A8 FD 00 AD 96 02 66 00 2E
  466.989364743  1  80    Rx   d 19  80 64 00 6E AE AF 78 02 59 00 A8 FD 00 AD 91 02 66 00 33
  467.989830524  1  80    Rx   d 19  80 64 00 6E AE AF 78 02 59 00 A8 FD 00 AD 91 02 66 00 33
  468.998862177  1  80    Rx   d 19  80 64 00 6E AE AF 78 02 59 00 A8 FD 00 AD 8E 02 66 00 36
  469.989641011  1  80    Rx   d 19  80 64 00 6E AE AF 78 02 59 00 A8 FD 00 AD 94 02 66 00 30
  470.998790622  1  80    Rx   d 19  80 64 00 6E AE AF 70 02 59 00 A8 FD 00 AD 92 02 66 00 3A
  471.989518285  1  80    Rx   d 19  80 64 00 6E AE AF 70 02 59 00 A8 FD 00 AD 90 02 66 00 3C
  472.988519341  1  80    Rx   d 19  80 64 00 6E AE AF 70 02 59 00 A8 FD 00 AD 8E 02 66 00 3E
  473.998463124  1  80    Rx   d 19  80 64 00 6E AE AF 70 02 59 00 A8 FD 00 AD 8E 02 66 00 3E
  474.988699794  1  80    Rx   d 19  80 64 00 6E AE AF 70 02 59 00 A8 FD 00 AD 8E 02 66 00 3E
  475.988496423  1  80    Rx   d 19  80 64 00 6E AE AF 70 02 59 00 A8 FD 00 AD 8E 02 66 00 3E
  476.989186257  1  80    Rx   d 19  80 64 00 6E AE AF 70 02 59 00 A8 FD 00 AD 8E 02 66 00 3E
  477.988851368  1  80    Rx   d 19  80 64 00 6E AE AF 70 02 59 00 A8 FD 00 AD 8E 02 66 00 3E
  478.988410771  1  80    Rx   d 19  80 64 00 6E AE AF 70 02 59 00 A8 FD 00 AD 8E 02 66 00 3E
  479.989090979  1  80    Rx   d 19  80 64 00 6E AE AF 70 02 59 00 A8 FD 00 AD 8E 02 66 00 3E
  480.998279422  1  80    Rx   d 19  80 64 00 6E AE AF 70 02 59 00 A8 FD 00 AD 8E 02 66 00 3E
  481.978408903  1  80    Rx   d 19  80 64 00 6E AE AF 70 02 59 00 A8 FD 00 AD 8E 02 66 00 3E
  482.988425314  1  80    Rx   d 19  80 64 00 6E AE AF 70 02 59 00 A8 FD 00 AD 8E 02 66 00 3E
  483.988240361  1  80    Rx   d 19  80 64 00 6E AE AF 70 02 59 00 A8 FD 00 AD 91 02 66 00 3B
  484.988274306  1  80    Rx   d 19  80 64 00 6E AE AF 70 02 59 00 A8 FD 00 AD 8E 02 66 00 3E
  485.999185025  1  80    Rx   d 19  80 64 00 6E AE AF 70 02 59 00 A8 FD 00 AD 8E 02 66 00 3E
  486.979259401  1  80    Rx   d 19  80 64 00 6E AE AF 70 02 59 00 A8 FD 00 AD 8E 02 66 00 3E
  487.988902569  1  80    Rx   d 19  80 64 00 6E AE AF 70 02 59 00 A8 FD 00 AD 8E 02 66 00 3E
  488.988487601  1  80    Rx   d 19  80 64 00 6E AE AF 70 02 59 00 A8 FD 00 AD 8E 02 66 00 3E
  489.984203160  1  80    Rx   d 19  80 64 00 6E AE AF 70 02 59 00 A8 FD 00 AD 8E 02 66 00 3E
  490.988908112  1  80    Rx   d 19  80 64 00 6E AE AF 70 02 59 00 A8 FD 00 AD 8E 02 66 00 3E
  491.998399734  1  80    Rx   d 19  80 64 00 6E AE AF 70 02 59 00 A8 FD 00 AD 8E 02 66 00 3E
  492.998112321  1  80    Rx   d 19  80 64 00 6E AE AF 70 02 59 00 A8 FD 00 AD 8E 02 66 00 3E
  493.998039067  1  80    Rx   d 19  80 64 00 6E AE AF 70 02 59 00 A8 FD 00 AD 8E 02 66 00 3E
  494.980006933  1  80    Rx   d 19  80 64 00 6E AE AF 70 02 59 00 A8 FD 00 AD 8E 02 66 00 3E
  495.988085806  1  80    Rx   d 19  80 64 00 6E AE AF 70 02 59 00 A8 FD 00 AD 8E 02 66 00 3E
  496.987997651  1  80    Rx   d 19  80 64 00 6E AE AF 70 02 59 00 A8 FD 00 AD 8E 02 66 00 3E
